
T0AF4 000:282 SEGGER J-Link V4.92 Log File (0001ms, 0263ms total)
T0AF4 000:282 DLL Compiled: Sep 30 2014 09:33:42 (0001ms, 0263ms total)
T0AF4 000:282 Logging started @ 2019-12-19 13:45 (0001ms, 0263ms total)
T0AF4 000:283 JLINK_SetWarnOutHandler(...) (0000ms, 0263ms total)
T0AF4 000:283 JLINK_OpenEx(...)
Firmware: J-Link ARM-OB STM32 compiled Aug 22 2012 19:52:04
Hardware: V7.00
S/N: 20090928
Feature(s): RDI,FlashDL,FlashBP,JFlash,GDBFull  returns O.K. (0261ms, 0524ms total)
T0AF4 000:544 JLINK_SetErrorOutHandler(...) (0000ms, 0524ms total)
T0AF4 000:544 JLINK_ExecCommand("ProjectFile = "D:\0-科研项目\4-嵌入式零散技能学习\STM32驱动0.96寸OLED液晶显示屏幕\Project\JLinkSettings.ini"", ...)  returns 0x00 (0000ms, 0524ms total)
T0AF4 000:548 JLINK_ExecCommand("Device = STM32F103RC", ...)Device "STM32F103RC" selected (256 KB flash, 48 KB RAM).  returns 0x00 (0004ms, 0528ms total)
T0AF4 000:552 JLINK_ExecCommand("DisableConnectionTimeout", ...)  returns 0x01 (0000ms, 0528ms total)
T0AF4 000:552 JLINK_GetHardwareVersion()  returns 0x11170 (0000ms, 0528ms total)
T0AF4 000:552 JLINK_GetDLLVersion()  returns 49200 (0000ms, 0528ms total)
T0AF4 000:552 JLINK_GetFirmwareString(...) (0000ms, 0528ms total)
T0AF4 000:562 JLINK_GetDLLVersion()  returns 49200 (0001ms, 0529ms total)
T0AF4 000:563 JLINK_GetCompileDateTime() (0000ms, 0529ms total)
T0AF4 000:565 JLINK_GetFirmwareString(...) (0000ms, 0529ms total)
T0AF4 000:567 JLINK_GetHardwareVersion()  returns 0x11170 (0000ms, 0529ms total)
T0AF4 000:574 JLINK_TIF_Select(JLINKARM_TIF_SWD)  returns 0x00 (0002ms, 0531ms total)
T0AF4 000:576 JLINK_SetSpeed(20000) (0000ms, 0531ms total)
T0AF4 000:576 JLINK_GetId() >0x108 TIF>Found SWD-DP with ID 0x1BA01477 >0x0D TIF> >0x28 TIF> >0x0D TIF> >0x28 TIF> >0x0D TIF> >0x21 TIF> >0x0D TIF> >0x28 TIF> >0x0D TIF> >0x28 TIF> >0x0D TIF> >0x28 TIF> >0x0D TIF> >0x21 TIF> >0x0D TIF> >0x21 TIF> >0x0D TIF> >0x28 TIF> >0x0D TIF> >0x21 TIF> >0x0D TIF> >0x21 TIF> >0x108 TIF>Found SWD-DP with ID 0x1BA01477 >0x0D TIF> >0x21 TIF> >0x0D TIF> >0x28 TIF> >0x0D TIF> >0x28 TIF> >0x0D TIF> >0x21 TIF> >0x0D TIF> >0x28 TIF> >0x0D TIF> >0x21 TIF> >0x0D TIF> >0x21 TIF>
 >0x0D TIF> >0x21 TIF> >0x0D TIF> >0x21 TIF> >0x0D TIF> >0x28 TIF> >0x0D TIF> >0x28 TIF> >0x0D TIF> >0x21 TIF> >0x0D TIF> >0x28 TIF> >0x0D TIF> >0x28 TIF> >0x0D TIF> >0x28 TIF> >0x0D TIF> >0x21 TIF> >0x0D TIF> >0x21 TIF> >0x0D TIF> >0x28 TIF> >0x0D TIF> >0x21 TIF> >0x0D TIF> >0x21 TIF>Found Cortex-M3 r1p1, Little endian. -- CPU_WriteMem(4 bytes @ 0xE0002000) -- CPU_ReadMem(4 bytes @ 0xE000EDF0) -- CPU_ReadMem(4 bytes @ 0xE0002000)FPUnit: 6 code (BP) slots and 2 literal slots
 -- CPU_ReadMem(4 bytes @ 0xE000EDFC) -- CPU_ReadMem(4 bytes @ 0xE0001000) -- CPU_WriteMem(4 bytes @ 0xE0001000) -- CPU_ReadMem(4 bytes @ 0xE000ED88) -- CPU_WriteMem(4 bytes @ 0xE000ED88) -- CPU_ReadMem(4 bytes @ 0xE000ED88) -- CPU_WriteMem(4 bytes @ 0xE000ED88) -- CPU_ReadMem(4 bytes @ 0xE00FF010)TPIU fitted. -- CPU_ReadMem(4 bytes @ 0xE00FF014)ETM fitted. -- CPU_ReadMem(4 bytes @ 0xE00FF018) >0x0D TIF> >0x21 TIF>  returns 0x1BA01477 (0046ms, 0577ms total)
T0AF4 000:622 JLINK_GetDLLVersion()  returns 49200 (0000ms, 0577ms total)
T0AF4 000:622 JLINK_CORE_GetFound()  returns 0x30000FF (0000ms, 0577ms total)
T0AF4 000:624 JLINK_ReadMem (0xE00FF000, 0x0020 Bytes, ...) -- CPU is running -- CPU_ReadMem(32 bytes @ 0xE00FF000) - Data: 03 F0 F0 FF 03 20 F0 FF 03 30 F0 FF 03 10 F0 FF ...  returns 0x00 (0001ms, 0578ms total)
T0AF4 000:625 JLINK_ReadMem (0xE000EFF0, 0x0010 Bytes, ...) -- CPU is running -- CPU_ReadMem(16 bytes @ 0xE000EFF0) - Data: 0D 00 00 00 E0 00 00 00 05 00 00 00 B1 00 00 00  returns 0x00 (0001ms, 0579ms total)
T0AF4 000:626 JLINK_ReadMem (0xE000EFD0, 0x0020 Bytes, ...) -- CPU is running -- CPU_ReadMem(32 bytes @ 0xE000EFD0) - Data: 04 00 00 00 00 00 00 00 00 00 00 00 00 00 00 00 ...  returns 0x00 (0001ms, 0580ms total)
T0AF4 000:627 JLINK_ReadMem (0xE0001FF0, 0x0010 Bytes, ...) -- CPU is running -- CPU_ReadMem(16 bytes @ 0xE0001FF0) - Data: 0D 00 00 00 E0 00 00 00 05 00 00 00 B1 00 00 00  returns 0x00 (0000ms, 0580ms total)
T0AF4 000:628 JLINK_ReadMem (0xE0001FD0, 0x0020 Bytes, ...) -- CPU is running -- CPU_ReadMem(32 bytes @ 0xE0001FD0) - Data: 04 00 00 00 00 00 00 00 00 00 00 00 00 00 00 00 ...  returns 0x00 (0001ms, 0582ms total)
T0AF4 000:629 JLINK_ReadMem (0xE0002FF0, 0x0010 Bytes, ...) -- CPU is running -- CPU_ReadMem(16 bytes @ 0xE0002FF0) - Data: 0D 00 00 00 E0 00 00 00 05 00 00 00 B1 00 00 00  returns 0x00 (0000ms, 0582ms total)
T0AF4 000:630 JLINK_ReadMem (0xE0002FD0, 0x0020 Bytes, ...) -- CPU is running -- CPU_ReadMem(32 bytes @ 0xE0002FD0) - Data: 04 00 00 00 00 00 00 00 00 00 00 00 00 00 00 00 ...  returns 0x00 (0000ms, 0582ms total)
T0AF4 000:631 JLINK_ReadMem (0xE0000FF0, 0x0010 Bytes, ...) -- CPU is running -- CPU_ReadMem(16 bytes @ 0xE0000FF0) - Data: 0D 00 00 00 E0 00 00 00 05 00 00 00 B1 00 00 00  returns 0x00 (0000ms, 0582ms total)
T0AF4 000:631 JLINK_ReadMem (0xE0000FD0, 0x0020 Bytes, ...) -- CPU is running -- CPU_ReadMem(32 bytes @ 0xE0000FD0) - Data: 04 00 00 00 00 00 00 00 00 00 00 00 00 00 00 00 ...  returns 0x00 (0001ms, 0583ms total)
T0AF4 000:632 JLINK_ReadMem (0xE0040FF0, 0x0010 Bytes, ...) -- CPU is running -- CPU_ReadMem(16 bytes @ 0xE0040FF0) - Data: 0D 00 00 00 90 00 00 00 05 00 00 00 B1 00 00 00  returns 0x00 (0001ms, 0584ms total)
T0AF4 000:633 JLINK_ReadMem (0xE0040FD0, 0x0020 Bytes, ...) -- CPU is running -- CPU_ReadMem(32 bytes @ 0xE0040FD0) - Data: 04 00 00 00 00 00 00 00 00 00 00 00 00 00 00 00 ...  returns 0x00 (0001ms, 0585ms total)
T0AF4 000:634 JLINK_ReadMem (0xE0041FF0, 0x0010 Bytes, ...) -- CPU is running -- CPU_ReadMem(16 bytes @ 0xE0041FF0) - Data: 0D 00 00 00 90 00 00 00 05 00 00 00 B1 00 00 00  returns 0x00 (0001ms, 0586ms total)
T0AF4 000:635 JLINK_ReadMem (0xE0041FD0, 0x0020 Bytes, ...) -- CPU is running -- CPU_ReadMem(32 bytes @ 0xE0041FD0) - Data: 04 00 00 00 00 00 00 00 00 00 00 00 00 00 00 00 ...  returns 0x00 (0001ms, 0587ms total)
T0AF4 000:636 JLINK_ReadMemU32(0xE000ED00, 0x0001 Items, ...) -- CPU is running -- CPU_ReadMem(4 bytes @ 0xE000ED00) - Data: 31 C2 1F 41  returns 0x01 (0001ms, 0588ms total)
T0AF4 000:637 JLINK_SetResetType(JLINKARM_RESET_TYPE_NORMAL)  returns JLINKARM_RESET_TYPE_NORMAL (0000ms, 0588ms total)
T0AF4 000:637 JLINK_Reset() -- CPU is running -- CPU_WriteMem(4 bytes @ 0xE000EDF0) -- CPU is running -- CPU_WriteMem(4 bytes @ 0xE000EDFC) >0x35 TIF> -- CPU is running -- CPU_WriteMem(4 bytes @ 0xE000ED0C) -- CPU is running -- CPU_ReadMem(4 bytes @ 0xE000EDF0) -- CPU is running -- CPU_ReadMem(4 bytes @ 0xE000EDF0) -- CPU is running -- CPU_WriteMem(4 bytes @ 0xE000EDF0) -- CPU is running -- CPU_WriteMem(4 bytes @ 0xE000EDFC) -- CPU is running -- CPU_ReadMem(4 bytes @ 0xE000EDF0)
 -- CPU_WriteMem(4 bytes @ 0xE0002000) -- CPU_ReadMem(4 bytes @ 0xE000EDFC) -- CPU_ReadMem(4 bytes @ 0xE0001000) (0020ms, 0608ms total)
T0AF4 000:657 JLINK_Halt()  returns 0x00 (0000ms, 0608ms total)
T0AF4 000:657 JLINK_IsHalted()  returns TRUE (0000ms, 0608ms total)
T0AF4 000:657 JLINK_ReadMemU32(0xE000EDF0, 0x0001 Items, ...) -- CPU_ReadMem(4 bytes @ 0xE000EDF0) - Data: 03 00 03 00  returns 0x01 (0001ms, 0609ms total)
T0AF4 000:658 JLINK_WriteU32(0xE000EDF0, 0xA05F0003) -- CPU_WriteMem(4 bytes @ 0xE000EDF0)  returns 0x00 (0001ms, 0610ms total)
T0AF4 000:659 JLINK_WriteU32(0xE000EDFC, 0x01000000) -- CPU_WriteMem(4 bytes @ 0xE000EDFC)  returns 0x00 (0001ms, 0611ms total)
T0AF4 000:667 JLINK_GetHWStatus(...)  returns 0x00 (0000ms, 0611ms total)
T0AF4 000:672 JLINK_GetNumBPUnits(Type = 0xFFFFFF00)  returns 0x06 (0000ms, 0611ms total)
T0AF4 000:672 JLINK_GetNumBPUnits(Type = 0xF0)  returns 0x2000 (0000ms, 0611ms total)
T0AF4 000:672 JLINK_GetNumWPUnits()  returns 0x04 (0000ms, 0611ms total)
T0AF4 000:678 JLINK_GetSpeed()  returns 0xFA0 (0000ms, 0611ms total)
T0AF4 000:681 JLINK_ReadMemU32(0xE000E004, 0x0001 Items, ...) -- CPU_ReadMem(4 bytes @ 0xE000E004) - Data: 01 00 00 00  returns 0x01 (0001ms, 0612ms total)
T0AF4 000:682 JLINK_ReadMemU32(0xE000E004, 0x0001 Items, ...) -- CPU_ReadMem(4 bytes @ 0xE000E004) - Data: 01 00 00 00  returns 0x01 (0000ms, 0612ms total)
T0AF4 000:682 JLINK_WriteMem(0xE0001000, 0x001C Bytes, ...) - Data: 01 00 00 00 00 00 00 00 00 00 00 00 00 00 00 00 ... -- CPU_WriteMem(28 bytes @ 0xE0001000)  returns 0x1C (0001ms, 0613ms total)
T0AF4 000:683 JLINK_ReadMem (0xE0001000, 0x001C Bytes, ...) -- CPU_ReadMem(28 bytes @ 0xE0001000) - Data: 01 00 00 40 00 00 00 00 00 00 00 00 00 00 00 00 ...  returns 0x00 (0001ms, 0614ms total)
T0AF4 000:684 JLINK_Halt()  returns 0x00 (0000ms, 0614ms total)
T0AF4 000:684 JLINK_IsHalted()  returns TRUE (0000ms, 0614ms total)
T0AF4 000:686 JLINK_WriteMem(0x20000000, 0x0164 Bytes, ...) - Data: 00 BE 0A E0 0D 78 2D 06 68 40 08 24 40 00 00 D3 ... -- CPU_WriteMem(356 bytes @ 0x20000000)  returns 0x164 (0005ms, 0619ms total)
T0AF4 000:691 JLINK_WriteReg(R0, 0x08000000)  returns 0x00 (0000ms, 0619ms total)
T0AF4 000:691 JLINK_WriteReg(R1, 0x00B71B00)  returns 0x00 (0000ms, 0619ms total)
T0AF4 000:691 JLINK_WriteReg(R2, 0x00000001)  returns 0x00 (0000ms, 0619ms total)
T0AF4 000:691 JLINK_WriteReg(R3, 0x00000000)  returns 0x00 (0000ms, 0619ms total)
T0AF4 000:691 JLINK_WriteReg(R4, 0x00000000)  returns 0x00 (0000ms, 0619ms total)
T0AF4 000:691 JLINK_WriteReg(R5, 0x00000000)  returns 0x00 (0001ms, 0620ms total)
T0AF4 000:692 JLINK_WriteReg(R6, 0x00000000)  returns 0x00 (0000ms, 0620ms total)
T0AF4 000:692 JLINK_WriteReg(R7, 0x00000000)  returns 0x00 (0000ms, 0620ms total)
T0AF4 000:692 JLINK_WriteReg(R8, 0x00000000)  returns 0x00 (0000ms, 0620ms total)
T0AF4 000:692 JLINK_WriteReg(R9, 0x20000160)  returns 0x00 (0000ms, 0620ms total)
T0AF4 000:692 JLINK_WriteReg(R10, 0x00000000)  returns 0x00 (0000ms, 0620ms total)
T0AF4 000:692 JLINK_WriteReg(R11, 0x00000000)  returns 0x00 (0000ms, 0620ms total)
T0AF4 000:692 JLINK_WriteReg(R12, 0x00000000)  returns 0x00 (0000ms, 0620ms total)
T0AF4 000:692 JLINK_WriteReg(R13 (SP), 0x20001000)  returns 0x00 (0000ms, 0620ms total)
T0AF4 000:692 JLINK_WriteReg(R14, 0x20000001)  returns 0x00 (0000ms, 0620ms total)
T0AF4 000:692 JLINK_WriteReg(R15 (PC), 0x20000038)  returns 0x00 (0000ms, 0620ms total)
T0AF4 000:692 JLINK_WriteReg(XPSR, 0x01000000)  returns 0x00 (0000ms, 0620ms total)
T0AF4 000:692 JLINK_WriteReg(MSP, 0x20001000)  returns 0x00 (0000ms, 0620ms total)
T0AF4 000:692 JLINK_WriteReg(PSP, 0x20001000)  returns 0x00 (0000ms, 0620ms total)
T0AF4 000:692 JLINK_WriteReg(CFBP, 0x00000000)  returns 0x00 (0000ms, 0620ms total)
T0AF4 000:692 JLINK_SetBPEx(Addr = 0x20000000, Type = 0xFFFFFFF2) -- CPU_ReadMem(2 bytes @ 0x20000000)  returns 0x00000001 (0000ms, 0620ms total)
T0AF4 000:692 JLINK_Go() -- CPU_WriteMem(2 bytes @ 0x20000000) -- CPU_WriteMem(4 bytes @ 0xE0002008) -- CPU_WriteMem(4 bytes @ 0xE000200C) -- CPU_WriteMem(4 bytes @ 0xE0002010) -- CPU_WriteMem(4 bytes @ 0xE0002014) -- CPU_WriteMem(4 bytes @ 0xE0002018) -- CPU_WriteMem(4 bytes @ 0xE000201C) -- CPU_WriteMem(4 bytes @ 0xE0001004) (0008ms, 0628ms total)
T0AF4 000:700 JLINK_IsHalted() -- CPU_ReadMem(2 bytes @ 0x20000000)  returns TRUE (0004ms, 0632ms total)
T0AF4 000:704 JLINK_ReadReg(R15 (PC))  returns 0x20000000 (0000ms, 0628ms total)
T0AF4 000:704 JLINK_ClrBPEx(BPHandle = 0x00000001)  returns 0x00 (0000ms, 0628ms total)
T0AF4 000:704 JLINK_ReadReg(R0)  returns 0x00000000 (0000ms, 0628ms total)
T0AF4 000:704 JLINK_WriteReg(R0, 0x08000000)  returns 0x00 (0000ms, 0628ms total)
T0AF4 000:704 JLINK_WriteReg(R1, 0x00000800)  returns 0x00 (0000ms, 0628ms total)
T0AF4 000:704 JLINK_WriteReg(R2, 0x000000FF)  returns 0x00 (0000ms, 0628ms total)
T0AF4 000:704 JLINK_WriteReg(R3, 0x00000000)  returns 0x00 (0000ms, 0628ms total)
T0AF4 000:704 JLINK_WriteReg(R4, 0x00000000)  returns 0x00 (0000ms, 0628ms total)
T0AF4 000:704 JLINK_WriteReg(R5, 0x00000000)  returns 0x00 (0000ms, 0628ms total)
T0AF4 000:704 JLINK_WriteReg(R6, 0x00000000)  returns 0x00 (0000ms, 0628ms total)
T0AF4 000:704 JLINK_WriteReg(R7, 0x00000000)  returns 0x00 (0000ms, 0628ms total)
T0AF4 000:704 JLINK_WriteReg(R8, 0x00000000)  returns 0x00 (0000ms, 0628ms total)
T0AF4 000:704 JLINK_WriteReg(R9, 0x20000160)  returns 0x00 (0000ms, 0628ms total)
T0AF4 000:704 JLINK_WriteReg(R10, 0x00000000)  returns 0x00 (0000ms, 0628ms total)
T0AF4 000:704 JLINK_WriteReg(R11, 0x00000000)  returns 0x00 (0000ms, 0628ms total)
T0AF4 000:704 JLINK_WriteReg(R12, 0x00000000)  returns 0x00 (0000ms, 0628ms total)
T0AF4 000:704 JLINK_WriteReg(R13 (SP), 0x20001000)  returns 0x00 (0000ms, 0628ms total)
T0AF4 000:704 JLINK_WriteReg(R14, 0x20000001)  returns 0x00 (0000ms, 0628ms total)
T0AF4 000:704 JLINK_WriteReg(R15 (PC), 0x20000020)  returns 0x00 (0000ms, 0628ms total)
T0AF4 000:704 JLINK_WriteReg(XPSR, 0x01000000)  returns 0x00 (0000ms, 0628ms total)
T0AF4 000:704 JLINK_WriteReg(MSP, 0x20001000)  returns 0x00 (0000ms, 0628ms total)
T0AF4 000:704 JLINK_WriteReg(PSP, 0x20001000)  returns 0x00 (0000ms, 0628ms total)
T0AF4 000:704 JLINK_WriteReg(CFBP, 0x00000000)  returns 0x00 (0000ms, 0628ms total)
T0AF4 000:704 JLINK_SetBPEx(Addr = 0x20000000, Type = 0xFFFFFFF2)  returns 0x00000002 (0001ms, 0629ms total)
T0AF4 000:705 JLINK_Go() (0001ms, 0630ms total)
T0AF4 000:706 JLINK_IsHalted() -- CPU_ReadMem(2 bytes @ 0x20000000)  returns TRUE (0005ms, 0635ms total)
T0AF4 000:711 JLINK_ReadReg(R15 (PC))  returns 0x20000000 (0000ms, 0630ms total)
T0AF4 000:711 JLINK_ClrBPEx(BPHandle = 0x00000002)  returns 0x00 (0000ms, 0630ms total)
T0AF4 000:711 JLINK_ReadReg(R0)  returns 0x00000001 (0000ms, 0630ms total)
T0AF4 000:711 JLINK_WriteReg(R0, 0x08000000)  returns 0x00 (0000ms, 0630ms total)
T0AF4 000:711 JLINK_WriteReg(R1, 0x00000800)  returns 0x00 (0000ms, 0630ms total)
T0AF4 000:711 JLINK_WriteReg(R2, 0x000000FF)  returns 0x00 (0000ms, 0630ms total)
T0AF4 000:711 JLINK_WriteReg(R3, 0x00000000)  returns 0x00 (0000ms, 0630ms total)
T0AF4 000:711 JLINK_WriteReg(R4, 0x00000000)  returns 0x00 (0000ms, 0630ms total)
T0AF4 000:711 JLINK_WriteReg(R5, 0x00000000)  returns 0x00 (0000ms, 0630ms total)
T0AF4 000:711 JLINK_WriteReg(R6, 0x00000000)  returns 0x00 (0000ms, 0630ms total)
T0AF4 000:711 JLINK_WriteReg(R7, 0x00000000)  returns 0x00 (0000ms, 0630ms total)
T0AF4 000:711 JLINK_WriteReg(R8, 0x00000000)  returns 0x00 (0000ms, 0630ms total)
T0AF4 000:711 JLINK_WriteReg(R9, 0x20000160)  returns 0x00 (0000ms, 0630ms total)
T0AF4 000:711 JLINK_WriteReg(R10, 0x00000000)  returns 0x00 (0000ms, 0630ms total)
T0AF4 000:711 JLINK_WriteReg(R11, 0x00000000)  returns 0x00 (0000ms, 0630ms total)
T0AF4 000:711 JLINK_WriteReg(R12, 0x00000000)  returns 0x00 (0000ms, 0630ms total)
T0AF4 000:711 JLINK_WriteReg(R13 (SP), 0x20001000)  returns 0x00 (0000ms, 0630ms total)
T0AF4 000:711 JLINK_WriteReg(R14, 0x20000001)  returns 0x00 (0000ms, 0630ms total)
T0AF4 000:711 JLINK_WriteReg(R15 (PC), 0x200000B6)  returns 0x00 (0000ms, 0630ms total)
T0AF4 000:711 JLINK_WriteReg(XPSR, 0x01000000)  returns 0x00 (0000ms, 0630ms total)
T0AF4 000:711 JLINK_WriteReg(MSP, 0x20001000)  returns 0x00 (0000ms, 0630ms total)
T0AF4 000:711 JLINK_WriteReg(PSP, 0x20001000)  returns 0x00 (0000ms, 0630ms total)
T0AF4 000:711 JLINK_WriteReg(CFBP, 0x00000000)  returns 0x00 (0000ms, 0630ms total)
T0AF4 000:711 JLINK_SetBPEx(Addr = 0x20000000, Type = 0xFFFFFFF2)  returns 0x00000003 (0000ms, 0630ms total)
T0AF4 000:711 JLINK_Go() (0002ms, 0632ms total)
T0AF4 000:713 JLINK_IsHalted()  returns FALSE (0001ms, 0633ms total)
T0AF4 000:739 JLINK_IsHalted() -- CPU_ReadMem(2 bytes @ 0x20000000)  returns TRUE (0004ms, 0636ms total)
T0AF4 000:743 JLINK_ReadReg(R15 (PC))  returns 0x20000000 (0000ms, 0632ms total)
T0AF4 000:743 JLINK_ClrBPEx(BPHandle = 0x00000003)  returns 0x00 (0000ms, 0632ms total)
T0AF4 000:743 JLINK_ReadReg(R0)  returns 0x00000000 (0000ms, 0632ms total)
T0AF4 000:743 JLINK_WriteReg(R0, 0x08000800)  returns 0x00 (0000ms, 0632ms total)
T0AF4 000:743 JLINK_WriteReg(R1, 0x00000800)  returns 0x00 (0000ms, 0632ms total)
T0AF4 000:743 JLINK_WriteReg(R2, 0x000000FF)  returns 0x00 (0000ms, 0632ms total)
T0AF4 000:743 JLINK_WriteReg(R3, 0x00000000)  returns 0x00 (0000ms, 0632ms total)
T0AF4 000:743 JLINK_WriteReg(R4, 0x00000000)  returns 0x00 (0000ms, 0632ms total)
T0AF4 000:743 JLINK_WriteReg(R5, 0x00000000)  returns 0x00 (0000ms, 0632ms total)
T0AF4 000:743 JLINK_WriteReg(R6, 0x00000000)  returns 0x00 (0000ms, 0632ms total)
T0AF4 000:743 JLINK_WriteReg(R7, 0x00000000)  returns 0x00 (0000ms, 0632ms total)
T0AF4 000:743 JLINK_WriteReg(R8, 0x00000000)  returns 0x00 (0000ms, 0632ms total)
T0AF4 000:744 JLINK_WriteReg(R9, 0x20000160)  returns 0x00 (0000ms, 0633ms total)
T0AF4 000:744 JLINK_WriteReg(R10, 0x00000000)  returns 0x00 (0000ms, 0633ms total)
T0AF4 000:744 JLINK_WriteReg(R11, 0x00000000)  returns 0x00 (0000ms, 0633ms total)
T0AF4 000:744 JLINK_WriteReg(R12, 0x00000000)  returns 0x00 (0000ms, 0633ms total)
T0AF4 000:744 JLINK_WriteReg(R13 (SP), 0x20001000)  returns 0x00 (0000ms, 0633ms total)
T0AF4 000:744 JLINK_WriteReg(R14, 0x20000001)  returns 0x00 (0000ms, 0633ms total)
T0AF4 000:744 JLINK_WriteReg(R15 (PC), 0x20000020)  returns 0x00 (0000ms, 0633ms total)
T0AF4 000:744 JLINK_WriteReg(XPSR, 0x01000000)  returns 0x00 (0000ms, 0633ms total)
T0AF4 000:744 JLINK_WriteReg(MSP, 0x20001000)  returns 0x00 (0000ms, 0633ms total)
T0AF4 000:744 JLINK_WriteReg(PSP, 0x20001000)  returns 0x00 (0000ms, 0633ms total)
T0AF4 000:744 JLINK_WriteReg(CFBP, 0x00000000)  returns 0x00 (0000ms, 0633ms total)
T0AF4 000:744 JLINK_SetBPEx(Addr = 0x20000000, Type = 0xFFFFFFF2)  returns 0x00000004 (0000ms, 0633ms total)
T0AF4 000:744 JLINK_Go() (0002ms, 0635ms total)
T0AF4 000:746 JLINK_IsHalted() -- CPU_ReadMem(2 bytes @ 0x20000000)  returns TRUE (0004ms, 0639ms total)
T0AF4 000:750 JLINK_ReadReg(R15 (PC))  returns 0x20000000 (0000ms, 0635ms total)
T0AF4 000:750 JLINK_ClrBPEx(BPHandle = 0x00000004)  returns 0x00 (0000ms, 0635ms total)
T0AF4 000:750 JLINK_ReadReg(R0)  returns 0x00000001 (0000ms, 0635ms total)
T0AF4 000:750 JLINK_WriteReg(R0, 0x08000800)  returns 0x00 (0000ms, 0635ms total)
T0AF4 000:750 JLINK_WriteReg(R1, 0x00000800)  returns 0x00 (0000ms, 0635ms total)
T0AF4 000:750 JLINK_WriteReg(R2, 0x000000FF)  returns 0x00 (0000ms, 0635ms total)
T0AF4 000:750 JLINK_WriteReg(R3, 0x00000000)  returns 0x00 (0000ms, 0635ms total)
T0AF4 000:750 JLINK_WriteReg(R4, 0x00000000)  returns 0x00 (0000ms, 0635ms total)
T0AF4 000:750 JLINK_WriteReg(R5, 0x00000000)  returns 0x00 (0000ms, 0635ms total)
T0AF4 000:750 JLINK_WriteReg(R6, 0x00000000)  returns 0x00 (0000ms, 0635ms total)
T0AF4 000:750 JLINK_WriteReg(R7, 0x00000000)  returns 0x00 (0000ms, 0635ms total)
T0AF4 000:750 JLINK_WriteReg(R8, 0x00000000)  returns 0x00 (0000ms, 0635ms total)
T0AF4 000:750 JLINK_WriteReg(R9, 0x20000160)  returns 0x00 (0000ms, 0635ms total)
T0AF4 000:750 JLINK_WriteReg(R10, 0x00000000)  returns 0x00 (0000ms, 0635ms total)
T0AF4 000:750 JLINK_WriteReg(R11, 0x00000000)  returns 0x00 (0000ms, 0635ms total)
T0AF4 000:750 JLINK_WriteReg(R12, 0x00000000)  returns 0x00 (0000ms, 0635ms total)
T0AF4 000:750 JLINK_WriteReg(R13 (SP), 0x20001000)  returns 0x00 (0000ms, 0635ms total)
T0AF4 000:750 JLINK_WriteReg(R14, 0x20000001)  returns 0x00 (0000ms, 0635ms total)
T0AF4 000:750 JLINK_WriteReg(R15 (PC), 0x200000B6)  returns 0x00 (0000ms, 0635ms total)
T0AF4 000:750 JLINK_WriteReg(XPSR, 0x01000000)  returns 0x00 (0000ms, 0635ms total)
T0AF4 000:750 JLINK_WriteReg(MSP, 0x20001000)  returns 0x00 (0000ms, 0635ms total)
T0AF4 000:750 JLINK_WriteReg(PSP, 0x20001000)  returns 0x00 (0000ms, 0635ms total)
T0AF4 000:750 JLINK_WriteReg(CFBP, 0x00000000)  returns 0x00 (0000ms, 0635ms total)
T0AF4 000:750 JLINK_SetBPEx(Addr = 0x20000000, Type = 0xFFFFFFF2)  returns 0x00000005 (0000ms, 0635ms total)
T0AF4 000:750 JLINK_Go() (0002ms, 0637ms total)
T0AF4 000:752 JLINK_IsHalted()  returns FALSE (0001ms, 0638ms total)
T0AF4 000:755 JLINK_IsHalted()  returns FALSE (0000ms, 0637ms total)
T0AF4 000:756 JLINK_IsHalted()  returns FALSE (0000ms, 0637ms total)
T0AF4 000:757 JLINK_IsHalted()  returns FALSE (0000ms, 0637ms total)
T0AF4 000:758 JLINK_IsHalted()  returns FALSE (0000ms, 0637ms total)
T0AF4 000:759 JLINK_IsHalted()  returns FALSE (0000ms, 0637ms total)
T0AF4 000:760 JLINK_IsHalted()  returns FALSE (0000ms, 0637ms total)
T0AF4 000:761 JLINK_IsHalted()  returns FALSE (0000ms, 0637ms total)
T0AF4 000:762 JLINK_IsHalted()  returns FALSE (0000ms, 0637ms total)
T0AF4 000:763 JLINK_IsHalted()  returns FALSE (0000ms, 0637ms total)
T0AF4 000:764 JLINK_IsHalted()  returns FALSE (0000ms, 0637ms total)
T0AF4 000:765 JLINK_IsHalted()  returns FALSE (0000ms, 0637ms total)
T0AF4 000:766 JLINK_IsHalted()  returns FALSE (0000ms, 0637ms total)
T0AF4 000:767 JLINK_IsHalted()  returns FALSE (0000ms, 0637ms total)
T0AF4 000:768 JLINK_IsHalted()  returns FALSE (0000ms, 0637ms total)
T0AF4 000:769 JLINK_IsHalted()  returns FALSE (0000ms, 0637ms total)
T0AF4 000:770 JLINK_IsHalted()  returns FALSE (0000ms, 0637ms total)
T0AF4 000:771 JLINK_IsHalted()  returns FALSE (0000ms, 0637ms total)
T0AF4 000:772 JLINK_IsHalted()  returns FALSE (0000ms, 0637ms total)
T0AF4 000:773 JLINK_IsHalted()  returns FALSE (0000ms, 0637ms total)
T0AF4 000:774 JLINK_IsHalted() -- CPU_ReadMem(2 bytes @ 0x20000000)  returns TRUE (0004ms, 0641ms total)
T0AF4 000:778 JLINK_ReadReg(R15 (PC))  returns 0x20000000 (0000ms, 0637ms total)
T0AF4 000:778 JLINK_ClrBPEx(BPHandle = 0x00000005)  returns 0x00 (0000ms, 0637ms total)
T0AF4 000:778 JLINK_ReadReg(R0)  returns 0x00000000 (0000ms, 0637ms total)
T0AF4 000:778 JLINK_WriteReg(R0, 0x00000001)  returns 0x00 (0000ms, 0637ms total)
T0AF4 000:778 JLINK_WriteReg(R1, 0x00000800)  returns 0x00 (0000ms, 0637ms total)
T0AF4 000:778 JLINK_WriteReg(R2, 0x000000FF)  returns 0x00 (0000ms, 0637ms total)
T0AF4 000:778 JLINK_WriteReg(R3, 0x00000000)  returns 0x00 (0000ms, 0637ms total)
T0AF4 000:778 JLINK_WriteReg(R4, 0x00000000)  returns 0x00 (0000ms, 0637ms total)
T0AF4 000:778 JLINK_WriteReg(R5, 0x00000000)  returns 0x00 (0000ms, 0637ms total)
T0AF4 000:778 JLINK_WriteReg(R6, 0x00000000)  returns 0x00 (0000ms, 0637ms total)
T0AF4 000:778 JLINK_WriteReg(R7, 0x00000000)  returns 0x00 (0000ms, 0637ms total)
T0AF4 000:778 JLINK_WriteReg(R8, 0x00000000)  returns 0x00 (0000ms, 0637ms total)
T0AF4 000:778 JLINK_WriteReg(R9, 0x20000160)  returns 0x00 (0000ms, 0637ms total)
T0AF4 000:778 JLINK_WriteReg(R10, 0x00000000)  returns 0x00 (0000ms, 0637ms total)
T0AF4 000:778 JLINK_WriteReg(R11, 0x00000000)  returns 0x00 (0000ms, 0637ms total)
T0AF4 000:778 JLINK_WriteReg(R12, 0x00000000)  returns 0x00 (0000ms, 0637ms total)
T0AF4 000:778 JLINK_WriteReg(R13 (SP), 0x20001000)  returns 0x00 (0000ms, 0637ms total)
T0AF4 000:778 JLINK_WriteReg(R14, 0x20000001)  returns 0x00 (0000ms, 0637ms total)
T0AF4 000:778 JLINK_WriteReg(R15 (PC), 0x2000006A)  returns 0x00 (0000ms, 0637ms total)
T0AF4 000:778 JLINK_WriteReg(XPSR, 0x01000000)  returns 0x00 (0000ms, 0637ms total)
T0AF4 000:778 JLINK_WriteReg(MSP, 0x20001000)  returns 0x00 (0000ms, 0637ms total)
T0AF4 000:778 JLINK_WriteReg(PSP, 0x20001000)  returns 0x00 (0000ms, 0637ms total)
T0AF4 000:778 JLINK_WriteReg(CFBP, 0x00000000)  returns 0x00 (0000ms, 0637ms total)
T0AF4 000:778 JLINK_SetBPEx(Addr = 0x20000000, Type = 0xFFFFFFF2)  returns 0x00000006 (0000ms, 0637ms total)
T0AF4 000:778 JLINK_Go() (0002ms, 0639ms total)
T0AF4 000:780 JLINK_IsHalted() -- CPU_ReadMem(2 bytes @ 0x20000000)  returns TRUE (0004ms, 0643ms total)
T0AF4 000:785 JLINK_ReadReg(R15 (PC))  returns 0x20000000 (0000ms, 0639ms total)
T0AF4 000:785 JLINK_ClrBPEx(BPHandle = 0x00000006)  returns 0x00 (0000ms, 0639ms total)
T0AF4 000:785 JLINK_ReadReg(R0)  returns 0x00000000 (0000ms, 0639ms total)
T0AF4 000:839 JLINK_WriteMem(0x20000000, 0x0164 Bytes, ...) - Data: 00 BE 0A E0 0D 78 2D 06 68 40 08 24 40 00 00 D3 ... -- CPU_WriteMem(356 bytes @ 0x20000000)  returns 0x164 (0006ms, 0645ms total)
T0AF4 000:845 JLINK_WriteReg(R0, 0x08000000)  returns 0x00 (0000ms, 0645ms total)
T0AF4 000:845 JLINK_WriteReg(R1, 0x00B71B00)  returns 0x00 (0000ms, 0645ms total)
T0AF4 000:845 JLINK_WriteReg(R2, 0x00000002)  returns 0x00 (0000ms, 0645ms total)
T0AF4 000:845 JLINK_WriteReg(R3, 0x00000000)  returns 0x00 (0000ms, 0645ms total)
T0AF4 000:845 JLINK_WriteReg(R4, 0x00000000)  returns 0x00 (0000ms, 0645ms total)
T0AF4 000:845 JLINK_WriteReg(R5, 0x00000000)  returns 0x00 (0000ms, 0645ms total)
T0AF4 000:845 JLINK_WriteReg(R6, 0x00000000)  returns 0x00 (0000ms, 0645ms total)
T0AF4 000:845 JLINK_WriteReg(R7, 0x00000000)  returns 0x00 (0000ms, 0645ms total)
T0AF4 000:845 JLINK_WriteReg(R8, 0x00000000)  returns 0x00 (0000ms, 0645ms total)
T0AF4 000:845 JLINK_WriteReg(R9, 0x20000160)  returns 0x00 (0000ms, 0645ms total)
T0AF4 000:845 JLINK_WriteReg(R10, 0x00000000)  returns 0x00 (0000ms, 0645ms total)
T0AF4 000:845 JLINK_WriteReg(R11, 0x00000000)  returns 0x00 (0000ms, 0645ms total)
T0AF4 000:845 JLINK_WriteReg(R12, 0x00000000)  returns 0x00 (0000ms, 0645ms total)
T0AF4 000:845 JLINK_WriteReg(R13 (SP), 0x20001000)  returns 0x00 (0000ms, 0645ms total)
T0AF4 000:845 JLINK_WriteReg(R14, 0x20000001)  returns 0x00 (0000ms, 0645ms total)
T0AF4 000:845 JLINK_WriteReg(R15 (PC), 0x20000038)  returns 0x00 (0000ms, 0645ms total)
T0AF4 000:845 JLINK_WriteReg(XPSR, 0x01000000)  returns 0x00 (0000ms, 0645ms total)
T0AF4 000:845 JLINK_WriteReg(MSP, 0x20001000)  returns 0x00 (0000ms, 0645ms total)
T0AF4 000:845 JLINK_WriteReg(PSP, 0x20001000)  returns 0x00 (0000ms, 0645ms total)
T0AF4 000:845 JLINK_WriteReg(CFBP, 0x00000000)  returns 0x00 (0000ms, 0645ms total)
T0AF4 000:845 JLINK_SetBPEx(Addr = 0x20000000, Type = 0xFFFFFFF2) -- CPU_ReadMem(2 bytes @ 0x20000000)  returns 0x00000007 (0001ms, 0646ms total)
T0AF4 000:846 JLINK_Go() -- CPU_WriteMem(2 bytes @ 0x20000000) (0003ms, 0649ms total)
T0AF4 000:849 JLINK_IsHalted() -- CPU_ReadMem(2 bytes @ 0x20000000)  returns TRUE (0004ms, 0653ms total)
T0AF4 000:853 JLINK_ReadReg(R15 (PC))  returns 0x20000000 (0000ms, 0649ms total)
T0AF4 000:853 JLINK_ClrBPEx(BPHandle = 0x00000007)  returns 0x00 (0000ms, 0649ms total)
T0AF4 000:853 JLINK_ReadReg(R0)  returns 0x00000000 (0000ms, 0649ms total)
T0AF4 000:853 JLINK_WriteMem(0x20000164, 0x0400 Bytes, ...) - Data: 58 0E 00 20 0D 02 00 08 89 05 00 08 81 05 00 08 ... -- CPU_WriteMem(1024 bytes @ 0x20000164)  returns 0x400 (0013ms, 0662ms total)
T0AF4 000:866 JLINK_WriteReg(R0, 0x08000000)  returns 0x00 (0000ms, 0662ms total)
T0AF4 000:866 JLINK_WriteReg(R1, 0x00000400)  returns 0x00 (0000ms, 0662ms total)
T0AF4 000:866 JLINK_WriteReg(R2, 0x20000164)  returns 0x00 (0000ms, 0662ms total)
T0AF4 000:866 JLINK_WriteReg(R3, 0x00000000)  returns 0x00 (0000ms, 0662ms total)
T0AF4 000:866 JLINK_WriteReg(R4, 0x00000000)  returns 0x00 (0000ms, 0662ms total)
T0AF4 000:866 JLINK_WriteReg(R5, 0x00000000)  returns 0x00 (0000ms, 0662ms total)
T0AF4 000:866 JLINK_WriteReg(R6, 0x00000000)  returns 0x00 (0000ms, 0662ms total)
T0AF4 000:866 JLINK_WriteReg(R7, 0x00000000)  returns 0x00 (0000ms, 0662ms total)
T0AF4 000:866 JLINK_WriteReg(R8, 0x00000000)  returns 0x00 (0000ms, 0662ms total)
T0AF4 000:866 JLINK_WriteReg(R9, 0x20000160)  returns 0x00 (0000ms, 0662ms total)
T0AF4 000:866 JLINK_WriteReg(R10, 0x00000000)  returns 0x00 (0000ms, 0662ms total)
T0AF4 000:866 JLINK_WriteReg(R11, 0x00000000)  returns 0x00 (0000ms, 0662ms total)
T0AF4 000:866 JLINK_WriteReg(R12, 0x00000000)  returns 0x00 (0000ms, 0662ms total)
T0AF4 000:866 JLINK_WriteReg(R13 (SP), 0x20001000)  returns 0x00 (0000ms, 0662ms total)
T0AF4 000:866 JLINK_WriteReg(R14, 0x20000001)  returns 0x00 (0000ms, 0662ms total)
T0AF4 000:866 JLINK_WriteReg(R15 (PC), 0x200000F4)  returns 0x00 (0000ms, 0662ms total)
T0AF4 000:866 JLINK_WriteReg(XPSR, 0x01000000)  returns 0x00 (0000ms, 0662ms total)
T0AF4 000:866 JLINK_WriteReg(MSP, 0x20001000)  returns 0x00 (0000ms, 0662ms total)
T0AF4 000:866 JLINK_WriteReg(PSP, 0x20001000)  returns 0x00 (0000ms, 0662ms total)
T0AF4 000:866 JLINK_WriteReg(CFBP, 0x00000000)  returns 0x00 (0000ms, 0662ms total)
T0AF4 000:866 JLINK_SetBPEx(Addr = 0x20000000, Type = 0xFFFFFFF2)  returns 0x00000008 (0000ms, 0662ms total)
T0AF4 000:866 JLINK_Go() (0003ms, 0665ms total)
T0AF4 000:869 JLINK_IsHalted()  returns FALSE (0000ms, 0665ms total)
T0AF4 000:878 JLINK_IsHalted()  returns FALSE (0000ms, 0665ms total)
T0AF4 000:879 JLINK_IsHalted()  returns FALSE (0000ms, 0665ms total)
T0AF4 000:880 JLINK_IsHalted()  returns FALSE (0000ms, 0665ms total)
T0AF4 000:881 JLINK_IsHalted()  returns FALSE (0000ms, 0665ms total)
T0AF4 000:882 JLINK_IsHalted()  returns FALSE (0000ms, 0665ms total)
T0AF4 000:883 JLINK_IsHalted()  returns FALSE (0000ms, 0665ms total)
T0AF4 000:884 JLINK_IsHalted()  returns FALSE (0000ms, 0665ms total)
T0AF4 000:885 JLINK_IsHalted()  returns FALSE (0000ms, 0665ms total)
T0AF4 000:886 JLINK_IsHalted()  returns FALSE (0000ms, 0665ms total)
T0AF4 000:887 JLINK_IsHalted()  returns FALSE (0000ms, 0665ms total)
T0AF4 000:888 JLINK_IsHalted()  returns FALSE (0000ms, 0665ms total)
T0AF4 000:889 JLINK_IsHalted()  returns FALSE (0000ms, 0665ms total)
T0AF4 000:890 JLINK_IsHalted()  returns FALSE (0000ms, 0665ms total)
T0AF4 000:891 JLINK_IsHalted()  returns FALSE (0000ms, 0665ms total)
T0AF4 000:892 JLINK_IsHalted()  returns FALSE (0000ms, 0665ms total)
T0AF4 000:893 JLINK_IsHalted()  returns FALSE (0000ms, 0665ms total)
T0AF4 000:894 JLINK_IsHalted()  returns FALSE (0000ms, 0665ms total)
T0AF4 000:895 JLINK_IsHalted()  returns FALSE (0000ms, 0665ms total)
T0AF4 000:896 JLINK_IsHalted()  returns FALSE (0000ms, 0665ms total)
T0AF4 000:903 JLINK_IsHalted() -- CPU_ReadMem(2 bytes @ 0x20000000)  returns TRUE (0004ms, 0669ms total)
T0AF4 000:907 JLINK_ReadReg(R15 (PC))  returns 0x20000000 (0000ms, 0665ms total)
T0AF4 000:907 JLINK_ClrBPEx(BPHandle = 0x00000008)  returns 0x00 (0000ms, 0665ms total)
T0AF4 000:907 JLINK_ReadReg(R0)  returns 0x00000000 (0000ms, 0665ms total)
T0AF4 000:908 JLINK_WriteMem(0x20000164, 0x0400 Bytes, ...) - Data: 91 F8 03 C0 BC F1 48 0F 07 D1 00 F1 08 0C 4F F0 ... -- CPU_WriteMem(1024 bytes @ 0x20000164)  returns 0x400 (0013ms, 0678ms total)
T0AF4 000:921 JLINK_WriteReg(R0, 0x08000400)  returns 0x00 (0000ms, 0678ms total)
T0AF4 000:921 JLINK_WriteReg(R1, 0x00000400)  returns 0x00 (0000ms, 0678ms total)
T0AF4 000:921 JLINK_WriteReg(R2, 0x20000164)  returns 0x00 (0000ms, 0678ms total)
T0AF4 000:921 JLINK_WriteReg(R3, 0x00000000)  returns 0x00 (0000ms, 0678ms total)
T0AF4 000:921 JLINK_WriteReg(R4, 0x00000000)  returns 0x00 (0000ms, 0678ms total)
T0AF4 000:921 JLINK_WriteReg(R5, 0x00000000)  returns 0x00 (0000ms, 0678ms total)
T0AF4 000:921 JLINK_WriteReg(R6, 0x00000000)  returns 0x00 (0000ms, 0678ms total)
T0AF4 000:921 JLINK_WriteReg(R7, 0x00000000)  returns 0x00 (0000ms, 0678ms total)
T0AF4 000:921 JLINK_WriteReg(R8, 0x00000000)  returns 0x00 (0000ms, 0678ms total)
T0AF4 000:921 JLINK_WriteReg(R9, 0x20000160)  returns 0x00 (0000ms, 0678ms total)
T0AF4 000:921 JLINK_WriteReg(R10, 0x00000000)  returns 0x00 (0000ms, 0678ms total)
T0AF4 000:921 JLINK_WriteReg(R11, 0x00000000)  returns 0x00 (0000ms, 0678ms total)
T0AF4 000:921 JLINK_WriteReg(R12, 0x00000000)  returns 0x00 (0000ms, 0678ms total)
T0AF4 000:921 JLINK_WriteReg(R13 (SP), 0x20001000)  returns 0x00 (0000ms, 0678ms total)
T0AF4 000:921 JLINK_WriteReg(R14, 0x20000001)  returns 0x00 (0000ms, 0678ms total)
T0AF4 000:921 JLINK_WriteReg(R15 (PC), 0x200000F4)  returns 0x00 (0000ms, 0678ms total)
T0AF4 000:921 JLINK_WriteReg(XPSR, 0x01000000)  returns 0x00 (0000ms, 0678ms total)
T0AF4 000:921 JLINK_WriteReg(MSP, 0x20001000)  returns 0x00 (0000ms, 0678ms total)
T0AF4 000:921 JLINK_WriteReg(PSP, 0x20001000)  returns 0x00 (0000ms, 0678ms total)
T0AF4 000:921 JLINK_WriteReg(CFBP, 0x00000000)  returns 0x00 (0000ms, 0678ms total)
T0AF4 000:921 JLINK_SetBPEx(Addr = 0x20000000, Type = 0xFFFFFFF2)  returns 0x00000009 (0000ms, 0678ms total)
T0AF4 000:921 JLINK_Go() (0002ms, 0680ms total)
T0AF4 000:923 JLINK_IsHalted()  returns FALSE (0001ms, 0681ms total)
T0AF4 000:925 JLINK_IsHalted()  returns FALSE (0000ms, 0680ms total)
T0AF4 000:926 JLINK_IsHalted()  returns FALSE (0000ms, 0680ms total)
T0AF4 000:927 JLINK_IsHalted()  returns FALSE (0000ms, 0680ms total)
T0AF4 000:928 JLINK_IsHalted()  returns FALSE (0000ms, 0680ms total)
T0AF4 000:929 JLINK_IsHalted()  returns FALSE (0000ms, 0680ms total)
T0AF4 000:930 JLINK_IsHalted()  returns FALSE (0000ms, 0680ms total)
T0AF4 000:931 JLINK_IsHalted()  returns FALSE (0000ms, 0680ms total)
T0AF4 000:932 JLINK_IsHalted()  returns FALSE (0000ms, 0680ms total)
T0AF4 000:933 JLINK_IsHalted()  returns FALSE (0000ms, 0680ms total)
T0AF4 000:934 JLINK_IsHalted()  returns FALSE (0000ms, 0680ms total)
T0AF4 000:935 JLINK_IsHalted()  returns FALSE (0000ms, 0680ms total)
T0AF4 000:936 JLINK_IsHalted()  returns FALSE (0000ms, 0680ms total)
T0AF4 000:937 JLINK_IsHalted()  returns FALSE (0000ms, 0680ms total)
T0AF4 000:938 JLINK_IsHalted()  returns FALSE (0000ms, 0680ms total)
T0AF4 000:939 JLINK_IsHalted()  returns FALSE (0000ms, 0680ms total)
T0AF4 000:940 JLINK_IsHalted()  returns FALSE (0000ms, 0680ms total)
T0AF4 000:941 JLINK_IsHalted()  returns FALSE (0000ms, 0680ms total)
T0AF4 000:942 JLINK_IsHalted()  returns FALSE (0000ms, 0680ms total)
T0AF4 000:943 JLINK_IsHalted()  returns FALSE (0000ms, 0680ms total)
T0AF4 000:944 JLINK_IsHalted()  returns FALSE (0000ms, 0680ms total)
T0AF4 000:945 JLINK_IsHalted()  returns FALSE (0000ms, 0680ms total)
T0AF4 000:946 JLINK_IsHalted()  returns FALSE (0000ms, 0680ms total)
T0AF4 000:947 JLINK_IsHalted()  returns FALSE (0000ms, 0680ms total)
T0AF4 000:948 JLINK_IsHalted()  returns FALSE (0000ms, 0680ms total)
T0AF4 000:949 JLINK_IsHalted()  returns FALSE (0000ms, 0680ms total)
T0AF4 000:950 JLINK_IsHalted()  returns FALSE (0000ms, 0680ms total)
T0AF4 000:951 JLINK_IsHalted()  returns FALSE (0000ms, 0680ms total)
T0AF4 000:952 JLINK_IsHalted()  returns FALSE (0000ms, 0680ms total)
T0AF4 000:953 JLINK_IsHalted()  returns FALSE (0000ms, 0680ms total)
T0AF4 000:954 JLINK_IsHalted() -- CPU_ReadMem(2 bytes @ 0x20000000)  returns TRUE (0004ms, 0684ms total)
T0AF4 000:958 JLINK_ReadReg(R15 (PC))  returns 0x20000000 (0000ms, 0680ms total)
T0AF4 000:958 JLINK_ClrBPEx(BPHandle = 0x00000009)  returns 0x00 (0000ms, 0680ms total)
T0AF4 000:958 JLINK_ReadReg(R0)  returns 0x00000000 (0000ms, 0680ms total)
T0AF4 000:958 JLINK_WriteMem(0x20000164, 0x0400 Bytes, ...) - Data: 4F F0 E0 22 11 61 70 47 10 B5 13 48 00 68 40 F0 ... -- CPU_WriteMem(1024 bytes @ 0x20000164)  returns 0x400 (0013ms, 0693ms total)
T0AF4 000:971 JLINK_WriteReg(R0, 0x08000800)  returns 0x00 (0000ms, 0693ms total)
T0AF4 000:971 JLINK_WriteReg(R1, 0x000002B4)  returns 0x00 (0000ms, 0693ms total)
T0AF4 000:971 JLINK_WriteReg(R2, 0x20000164)  returns 0x00 (0000ms, 0693ms total)
T0AF4 000:971 JLINK_WriteReg(R3, 0x00000000)  returns 0x00 (0000ms, 0693ms total)
T0AF4 000:971 JLINK_WriteReg(R4, 0x00000000)  returns 0x00 (0000ms, 0693ms total)
T0AF4 000:971 JLINK_WriteReg(R5, 0x00000000)  returns 0x00 (0000ms, 0693ms total)
T0AF4 000:971 JLINK_WriteReg(R6, 0x00000000)  returns 0x00 (0000ms, 0693ms total)
T0AF4 000:971 JLINK_WriteReg(R7, 0x00000000)  returns 0x00 (0000ms, 0693ms total)
T0AF4 000:971 JLINK_WriteReg(R8, 0x00000000)  returns 0x00 (0000ms, 0693ms total)
T0AF4 000:971 JLINK_WriteReg(R9, 0x20000160)  returns 0x00 (0000ms, 0693ms total)
T0AF4 000:971 JLINK_WriteReg(R10, 0x00000000)  returns 0x00 (0000ms, 0693ms total)
T0AF4 000:971 JLINK_WriteReg(R11, 0x00000000)  returns 0x00 (0000ms, 0693ms total)
T0AF4 000:971 JLINK_WriteReg(R12, 0x00000000)  returns 0x00 (0000ms, 0693ms total)
T0AF4 000:971 JLINK_WriteReg(R13 (SP), 0x20001000)  returns 0x00 (0000ms, 0693ms total)
T0AF4 000:971 JLINK_WriteReg(R14, 0x20000001)  returns 0x00 (0000ms, 0693ms total)
T0AF4 000:971 JLINK_WriteReg(R15 (PC), 0x200000F4)  returns 0x00 (0000ms, 0693ms total)
T0AF4 000:971 JLINK_WriteReg(XPSR, 0x01000000)  returns 0x00 (0000ms, 0693ms total)
T0AF4 000:971 JLINK_WriteReg(MSP, 0x20001000)  returns 0x00 (0000ms, 0693ms total)
T0AF4 000:971 JLINK_WriteReg(PSP, 0x20001000)  returns 0x00 (0000ms, 0693ms total)
T0AF4 000:971 JLINK_WriteReg(CFBP, 0x00000000)  returns 0x00 (0000ms, 0693ms total)
T0AF4 000:971 JLINK_SetBPEx(Addr = 0x20000000, Type = 0xFFFFFFF2)  returns 0x0000000A (0000ms, 0693ms total)
T0AF4 000:971 JLINK_Go() (0003ms, 0696ms total)
T0AF4 000:974 JLINK_IsHalted()  returns FALSE (0000ms, 0696ms total)
T0AF4 000:976 JLINK_IsHalted()  returns FALSE (0000ms, 0696ms total)
T0AF4 000:977 JLINK_IsHalted()  returns FALSE (0000ms, 0696ms total)
T0AF4 000:978 JLINK_IsHalted()  returns FALSE (0000ms, 0696ms total)
T0AF4 000:979 JLINK_IsHalted()  returns FALSE (0000ms, 0696ms total)
T0AF4 000:980 JLINK_IsHalted()  returns FALSE (0000ms, 0696ms total)
T0AF4 000:981 JLINK_IsHalted()  returns FALSE (0000ms, 0696ms total)
T0AF4 000:982 JLINK_IsHalted()  returns FALSE (0000ms, 0696ms total)
T0AF4 000:983 JLINK_IsHalted()  returns FALSE (0000ms, 0696ms total)
T0AF4 000:984 JLINK_IsHalted()  returns FALSE (0000ms, 0696ms total)
T0AF4 000:985 JLINK_IsHalted()  returns FALSE (0000ms, 0696ms total)
T0AF4 000:986 JLINK_IsHalted()  returns FALSE (0000ms, 0696ms total)
T0AF4 000:987 JLINK_IsHalted()  returns FALSE (0000ms, 0696ms total)
T0AF4 000:988 JLINK_IsHalted()  returns FALSE (0000ms, 0696ms total)
T0AF4 000:989 JLINK_IsHalted()  returns FALSE (0000ms, 0696ms total)
T0AF4 000:990 JLINK_IsHalted()  returns FALSE (0000ms, 0696ms total)
T0AF4 000:991 JLINK_IsHalted()  returns FALSE (0000ms, 0696ms total)
T0AF4 000:992 JLINK_IsHalted()  returns FALSE (0000ms, 0696ms total)
T0AF4 000:993 JLINK_IsHalted()  returns FALSE (0000ms, 0696ms total)
T0AF4 000:994 JLINK_IsHalted()  returns FALSE (0000ms, 0696ms total)
T0AF4 000:995 JLINK_IsHalted() -- CPU_ReadMem(2 bytes @ 0x20000000)  returns TRUE (0004ms, 0700ms total)
T0AF4 000:999 JLINK_ReadReg(R15 (PC))  returns 0x20000000 (0000ms, 0696ms total)
T0AF4 000:999 JLINK_ClrBPEx(BPHandle = 0x0000000A)  returns 0x00 (0000ms, 0696ms total)
T0AF4 000:999 JLINK_ReadReg(R0)  returns 0x00000000 (0000ms, 0696ms total)
T0AF4 000:999 JLINK_WriteReg(R0, 0x00000002)  returns 0x00 (0000ms, 0696ms total)
T0AF4 000:999 JLINK_WriteReg(R1, 0x000002B4)  returns 0x00 (0000ms, 0696ms total)
T0AF4 000:999 JLINK_WriteReg(R2, 0x20000164)  returns 0x00 (0000ms, 0696ms total)
T0AF4 000:999 JLINK_WriteReg(R3, 0x00000000)  returns 0x00 (0000ms, 0696ms total)
T0AF4 000:999 JLINK_WriteReg(R4, 0x00000000)  returns 0x00 (0000ms, 0696ms total)
T0AF4 000:999 JLINK_WriteReg(R5, 0x00000000)  returns 0x00 (0000ms, 0696ms total)
T0AF4 000:999 JLINK_WriteReg(R6, 0x00000000)  returns 0x00 (0000ms, 0696ms total)
T0AF4 000:999 JLINK_WriteReg(R7, 0x00000000)  returns 0x00 (0000ms, 0696ms total)
T0AF4 000:999 JLINK_WriteReg(R8, 0x00000000)  returns 0x00 (0000ms, 0696ms total)
T0AF4 000:999 JLINK_WriteReg(R9, 0x20000160)  returns 0x00 (0000ms, 0696ms total)
T0AF4 000:999 JLINK_WriteReg(R10, 0x00000000)  returns 0x00 (0000ms, 0696ms total)
T0AF4 000:999 JLINK_WriteReg(R11, 0x00000000)  returns 0x00 (0000ms, 0696ms total)
T0AF4 000:999 JLINK_WriteReg(R12, 0x00000000)  returns 0x00 (0000ms, 0696ms total)
T0AF4 000:999 JLINK_WriteReg(R13 (SP), 0x20001000)  returns 0x00 (0000ms, 0696ms total)
T0AF4 000:999 JLINK_WriteReg(R14, 0x20000001)  returns 0x00 (0000ms, 0696ms total)
T0AF4 000:999 JLINK_WriteReg(R15 (PC), 0x2000006A)  returns 0x00 (0000ms, 0696ms total)
T0AF4 000:999 JLINK_WriteReg(XPSR, 0x01000000)  returns 0x00 (0000ms, 0696ms total)
T0AF4 000:999 JLINK_WriteReg(MSP, 0x20001000)  returns 0x00 (0000ms, 0696ms total)
T0AF4 000:999 JLINK_WriteReg(PSP, 0x20001000)  returns 0x00 (0000ms, 0696ms total)
T0AF4 000:999 JLINK_WriteReg(CFBP, 0x00000000)  returns 0x00 (0000ms, 0696ms total)
T0AF4 000:999 JLINK_SetBPEx(Addr = 0x20000000, Type = 0xFFFFFFF2)  returns 0x0000000B (0000ms, 0696ms total)
T0AF4 001:000 JLINK_Go() (0001ms, 0697ms total)
T0AF4 001:001 JLINK_IsHalted() -- CPU_ReadMem(2 bytes @ 0x20000000)  returns TRUE (0005ms, 0702ms total)
T0AF4 001:006 JLINK_ReadReg(R15 (PC))  returns 0x20000000 (0000ms, 0697ms total)
T0AF4 001:006 JLINK_ClrBPEx(BPHandle = 0x0000000B)  returns 0x00 (0000ms, 0697ms total)
T0AF4 001:006 JLINK_ReadReg(R0)  returns 0x00000000 (0000ms, 0697ms total)
T0AF4 001:061 JLINK_WriteMem(0x20000000, 0x0164 Bytes, ...) - Data: 00 BE 0A E0 0D 78 2D 06 68 40 08 24 40 00 00 D3 ... -- CPU_WriteMem(356 bytes @ 0x20000000)  returns 0x164 (0005ms, 0702ms total)
T0AF4 001:066 JLINK_WriteReg(R0, 0x08000000)  returns 0x00 (0000ms, 0702ms total)
T0AF4 001:066 JLINK_WriteReg(R1, 0x00B71B00)  returns 0x00 (0000ms, 0702ms total)
T0AF4 001:066 JLINK_WriteReg(R2, 0x00000003)  returns 0x00 (0000ms, 0702ms total)
T0AF4 001:066 JLINK_WriteReg(R3, 0x00000000)  returns 0x00 (0000ms, 0702ms total)
T0AF4 001:066 JLINK_WriteReg(R4, 0x00000000)  returns 0x00 (0000ms, 0702ms total)
T0AF4 001:066 JLINK_WriteReg(R5, 0x00000000)  returns 0x00 (0000ms, 0702ms total)
T0AF4 001:066 JLINK_WriteReg(R6, 0x00000000)  returns 0x00 (0000ms, 0702ms total)
T0AF4 001:066 JLINK_WriteReg(R7, 0x00000000)  returns 0x00 (0000ms, 0702ms total)
T0AF4 001:066 JLINK_WriteReg(R8, 0x00000000)  returns 0x00 (0000ms, 0702ms total)
T0AF4 001:066 JLINK_WriteReg(R9, 0x20000160)  returns 0x00 (0000ms, 0702ms total)
T0AF4 001:066 JLINK_WriteReg(R10, 0x00000000)  returns 0x00 (0000ms, 0702ms total)
T0AF4 001:066 JLINK_WriteReg(R11, 0x00000000)  returns 0x00 (0000ms, 0702ms total)
T0AF4 001:066 JLINK_WriteReg(R12, 0x00000000)  returns 0x00 (0000ms, 0702ms total)
T0AF4 001:066 JLINK_WriteReg(R13 (SP), 0x20001000)  returns 0x00 (0000ms, 0702ms total)
T0AF4 001:066 JLINK_WriteReg(R14, 0x20000001)  returns 0x00 (0000ms, 0702ms total)
T0AF4 001:066 JLINK_WriteReg(R15 (PC), 0x20000038)  returns 0x00 (0000ms, 0702ms total)
T0AF4 001:066 JLINK_WriteReg(XPSR, 0x01000000)  returns 0x00 (0000ms, 0702ms total)
T0AF4 001:066 JLINK_WriteReg(MSP, 0x20001000)  returns 0x00 (0000ms, 0702ms total)
T0AF4 001:066 JLINK_WriteReg(PSP, 0x20001000)  returns 0x00 (0000ms, 0702ms total)
T0AF4 001:066 JLINK_WriteReg(CFBP, 0x00000000)  returns 0x00 (0000ms, 0702ms total)
T0AF4 001:066 JLINK_SetBPEx(Addr = 0x20000000, Type = 0xFFFFFFF2) -- CPU_ReadMem(2 bytes @ 0x20000000)  returns 0x0000000C (0001ms, 0703ms total)
T0AF4 001:067 JLINK_Go() -- CPU_WriteMem(2 bytes @ 0x20000000) (0003ms, 0706ms total)
T0AF4 001:070 JLINK_IsHalted() -- CPU_ReadMem(2 bytes @ 0x20000000)  returns TRUE (0005ms, 0711ms total)
T0AF4 001:075 JLINK_ReadReg(R15 (PC))  returns 0x20000000 (0000ms, 0706ms total)
T0AF4 001:075 JLINK_ClrBPEx(BPHandle = 0x0000000C)  returns 0x00 (0000ms, 0706ms total)
T0AF4 001:075 JLINK_ReadReg(R0)  returns 0x00000000 (0000ms, 0706ms total)
T0AF4 001:075 JLINK_WriteReg(R0, 0xFFFFFFFF)  returns 0x00 (0000ms, 0706ms total)
T0AF4 001:075 JLINK_WriteReg(R1, 0x08000000)  returns 0x00 (0000ms, 0706ms total)
T0AF4 001:075 JLINK_WriteReg(R2, 0x00000AB4)  returns 0x00 (0000ms, 0706ms total)
T0AF4 001:075 JLINK_WriteReg(R3, 0x04C11DB7)  returns 0x00 (0000ms, 0706ms total)
T0AF4 001:075 JLINK_WriteReg(R4, 0x00000000)  returns 0x00 (0000ms, 0706ms total)
T0AF4 001:075 JLINK_WriteReg(R5, 0x00000000)  returns 0x00 (0000ms, 0706ms total)
T0AF4 001:075 JLINK_WriteReg(R6, 0x00000000)  returns 0x00 (0000ms, 0706ms total)
T0AF4 001:075 JLINK_WriteReg(R7, 0x00000000)  returns 0x00 (0000ms, 0706ms total)
T0AF4 001:075 JLINK_WriteReg(R8, 0x00000000)  returns 0x00 (0000ms, 0706ms total)
T0AF4 001:075 JLINK_WriteReg(R9, 0x20000160)  returns 0x00 (0000ms, 0706ms total)
T0AF4 001:075 JLINK_WriteReg(R10, 0x00000000)  returns 0x00 (0000ms, 0706ms total)
T0AF4 001:075 JLINK_WriteReg(R11, 0x00000000)  returns 0x00 (0000ms, 0706ms total)
T0AF4 001:075 JLINK_WriteReg(R12, 0x00000000)  returns 0x00 (0000ms, 0706ms total)
T0AF4 001:075 JLINK_WriteReg(R13 (SP), 0x20001000)  returns 0x00 (0000ms, 0706ms total)
T0AF4 001:075 JLINK_WriteReg(R14, 0x20000001)  returns 0x00 (0000ms, 0706ms total)
T0AF4 001:075 JLINK_WriteReg(R15 (PC), 0x20000002)  returns 0x00 (0000ms, 0706ms total)
T0AF4 001:075 JLINK_WriteReg(XPSR, 0x01000000)  returns 0x00 (0000ms, 0706ms total)
T0AF4 001:075 JLINK_WriteReg(MSP, 0x20001000)  returns 0x00 (0000ms, 0706ms total)
T0AF4 001:075 JLINK_WriteReg(PSP, 0x20001000)  returns 0x00 (0000ms, 0706ms total)
T0AF4 001:075 JLINK_WriteReg(CFBP, 0x00000000)  returns 0x00 (0000ms, 0706ms total)
T0AF4 001:075 JLINK_SetBPEx(Addr = 0x20000000, Type = 0xFFFFFFF2)  returns 0x0000000D (0000ms, 0706ms total)
T0AF4 001:075 JLINK_Go() (0003ms, 0709ms total)
T0AF4 001:078 JLINK_IsHalted()  returns FALSE (0000ms, 0709ms total)
T0AF4 001:086 JLINK_IsHalted()  returns FALSE (0000ms, 0709ms total)
T0AF4 001:087 JLINK_IsHalted()  returns FALSE (0000ms, 0709ms total)
T0AF4 001:088 JLINK_IsHalted()  returns FALSE (0000ms, 0709ms total)
T0AF4 001:089 JLINK_IsHalted()  returns FALSE (0000ms, 0709ms total)
T0AF4 001:090 JLINK_IsHalted()  returns FALSE (0000ms, 0709ms total)
T0AF4 001:091 JLINK_IsHalted()  returns FALSE (0000ms, 0709ms total)
T0AF4 001:092 JLINK_IsHalted()  returns FALSE (0000ms, 0709ms total)
T0AF4 001:093 JLINK_IsHalted()  returns FALSE (0000ms, 0709ms total)
T0AF4 001:094 JLINK_IsHalted()  returns FALSE (0000ms, 0709ms total)
T0AF4 001:095 JLINK_IsHalted()  returns FALSE (0000ms, 0709ms total)
T0AF4 001:096 JLINK_IsHalted()  returns FALSE (0000ms, 0709ms total)
T0AF4 001:097 JLINK_IsHalted()  returns FALSE (0000ms, 0709ms total)
T0AF4 001:099 JLINK_IsHalted()  returns FALSE (0000ms, 0709ms total)
T0AF4 001:100 JLINK_IsHalted()  returns FALSE (0000ms, 0709ms total)
T0AF4 001:101 JLINK_IsHalted()  returns FALSE (0000ms, 0709ms total)
T0AF4 001:102 JLINK_IsHalted()  returns FALSE (0000ms, 0709ms total)
T0AF4 001:103 JLINK_IsHalted()  returns FALSE (0000ms, 0709ms total)
T0AF4 001:104 JLINK_IsHalted()  returns FALSE (0000ms, 0709ms total)
T0AF4 001:105 JLINK_IsHalted()  returns FALSE (0000ms, 0709ms total)
T0AF4 001:106 JLINK_IsHalted()  returns FALSE (0000ms, 0709ms total)
T0AF4 001:107 JLINK_IsHalted()  returns FALSE (0000ms, 0709ms total)
T0AF4 001:108 JLINK_IsHalted() -- CPU_ReadMem(2 bytes @ 0x20000000)  returns TRUE (0004ms, 0713ms total)
T0AF4 001:112 JLINK_ReadReg(R15 (PC))  returns 0x20000000 (0000ms, 0709ms total)
T0AF4 001:112 JLINK_ClrBPEx(BPHandle = 0x0000000D)  returns 0x00 (0000ms, 0709ms total)
T0AF4 001:112 JLINK_ReadReg(R0)  returns 0xD21A0B64 (0000ms, 0709ms total)
T0AF4 001:113 JLINK_WriteReg(R0, 0x00000003)  returns 0x00 (0000ms, 0709ms total)
T0AF4 001:113 JLINK_WriteReg(R1, 0x08000000)  returns 0x00 (0000ms, 0709ms total)
T0AF4 001:113 JLINK_WriteReg(R2, 0x00000AB4)  returns 0x00 (0000ms, 0709ms total)
T0AF4 001:113 JLINK_WriteReg(R3, 0x04C11DB7)  returns 0x00 (0000ms, 0709ms total)
T0AF4 001:113 JLINK_WriteReg(R4, 0x00000000)  returns 0x00 (0000ms, 0709ms total)
T0AF4 001:113 JLINK_WriteReg(R5, 0x00000000)  returns 0x00 (0000ms, 0709ms total)
T0AF4 001:113 JLINK_WriteReg(R6, 0x00000000)  returns 0x00 (0000ms, 0709ms total)
T0AF4 001:114 JLINK_WriteReg(R7, 0x00000000)  returns 0x00 (0000ms, 0710ms total)
T0AF4 001:114 JLINK_WriteReg(R8, 0x00000000)  returns 0x00 (0000ms, 0710ms total)
T0AF4 001:114 JLINK_WriteReg(R9, 0x20000160)  returns 0x00 (0000ms, 0710ms total)
T0AF4 001:114 JLINK_WriteReg(R10, 0x00000000)  returns 0x00 (0000ms, 0710ms total)
T0AF4 001:114 JLINK_WriteReg(R11, 0x00000000)  returns 0x00 (0000ms, 0710ms total)
T0AF4 001:114 JLINK_WriteReg(R12, 0x00000000)  returns 0x00 (0000ms, 0710ms total)
T0AF4 001:114 JLINK_WriteReg(R13 (SP), 0x20001000)  returns 0x00 (0000ms, 0710ms total)
T0AF4 001:114 JLINK_WriteReg(R14, 0x20000001)  returns 0x00 (0000ms, 0710ms total)
T0AF4 001:114 JLINK_WriteReg(R15 (PC), 0x2000006A)  returns 0x00 (0000ms, 0710ms total)
T0AF4 001:114 JLINK_WriteReg(XPSR, 0x01000000)  returns 0x00 (0000ms, 0710ms total)
T0AF4 001:114 JLINK_WriteReg(MSP, 0x20001000)  returns 0x00 (0000ms, 0710ms total)
T0AF4 001:114 JLINK_WriteReg(PSP, 0x20001000)  returns 0x00 (0000ms, 0710ms total)
T0AF4 001:114 JLINK_WriteReg(CFBP, 0x00000000)  returns 0x00 (0000ms, 0710ms total)
T0AF4 001:114 JLINK_SetBPEx(Addr = 0x20000000, Type = 0xFFFFFFF2)  returns 0x0000000E (0000ms, 0710ms total)
T0AF4 001:114 JLINK_Go() (0002ms, 0712ms total)
T0AF4 001:116 JLINK_IsHalted() -- CPU_ReadMem(2 bytes @ 0x20000000)  returns TRUE (0004ms, 0716ms total)
T0AF4 001:120 JLINK_ReadReg(R15 (PC))  returns 0x20000000 (0000ms, 0712ms total)
T0AF4 001:120 JLINK_ClrBPEx(BPHandle = 0x0000000E)  returns 0x00 (0000ms, 0712ms total)
T0AF4 001:120 JLINK_ReadReg(R0)  returns 0x00000000 (0000ms, 0712ms total)
T0AF4 001:172 JLINK_WriteMem(0x20000000, 0x0002 Bytes, ...) - Data: FE E7 -- CPU_WriteMem(2 bytes @ 0x20000000)  returns 0x02 (0001ms, 0713ms total)
T0AF4 001:173 JLINK_SetResetType(JLINKARM_RESET_TYPE_NORMAL)  returns JLINKARM_RESET_TYPE_NORMAL (0000ms, 0713ms total)
T0AF4 001:173 JLINK_Reset() -- CPU_WriteMem(4 bytes @ 0xE000EDF0) -- CPU_WriteMem(4 bytes @ 0xE000EDFC) >0x35 TIF> -- CPU_WriteMem(4 bytes @ 0xE000ED0C) -- CPU_ReadMem(4 bytes @ 0xE000EDF0) -- CPU_ReadMem(4 bytes @ 0xE000EDF0) -- CPU_WriteMem(4 bytes @ 0xE000EDF0) -- CPU_WriteMem(4 bytes @ 0xE000EDFC) -- CPU is running -- CPU_ReadMem(4 bytes @ 0xE000EDF0) -- CPU_WriteMem(4 bytes @ 0xE0002000) -- CPU_ReadMem(4 bytes @ 0xE000EDFC) -- CPU_ReadMem(4 bytes @ 0xE0001000) (0020ms, 0733ms total)
T0AF4 001:193 JLINK_Go() -- CPU_WriteMem(4 bytes @ 0xE0002008) -- CPU_WriteMem(4 bytes @ 0xE000200C) -- CPU_WriteMem(4 bytes @ 0xE0002010) -- CPU_WriteMem(4 bytes @ 0xE0002014) -- CPU_WriteMem(4 bytes @ 0xE0002018) -- CPU_WriteMem(4 bytes @ 0xE000201C) -- CPU_WriteMem(4 bytes @ 0xE0001004) (0005ms, 0738ms total)
T0AF4 001:209 JLINK_Close() -- CPU is running -- CPU_WriteMem(4 bytes @ 0xE0002008) -- CPU is running -- CPU_WriteMem(4 bytes @ 0xE000200C) -- CPU is running -- CPU_WriteMem(4 bytes @ 0xE0002010) -- CPU is running -- CPU_WriteMem(4 bytes @ 0xE0002014) -- CPU is running -- CPU_WriteMem(4 bytes @ 0xE0002018) -- CPU is running -- CPU_WriteMem(4 bytes @ 0xE000201C) >0x42 TIF> >0x28 TIF> >0x0D TIF> >0x21 TIF> (0007ms, 0745ms total)
